time,vin,vout
0.0,0.10989549928355948,0.4395819971342379
1.6000000000035083e-09,0.1848924122869135,0.43956964914699626
4.800000000010525e-09,0.3348880566338272,0.43955222653333537
1.1199999999997453e-08,0.6348902545742175,0.4395610182973479
1.6000000000007978e-08,0.85990144775421,0.43960579101684005
1.7280000000016206e-08,0.8599055232298979,0.4396220929195914
1.9840000000005556e-08,0.8599136739441618,0.43965469577664756
2.4960000000011362e-08,0.8599299739501026,0.43971989580041054
3.5200000000022973e-08,0.8599625682724623,0.4398502730898491
5.120000000003095e-08,0.8600134817179186,0.4400539268716742
6.720000000003893e-08,0.8600643766527603,0.44025750661104096
8.320000000004691e-08,0.8601152530837173,0.44046101233486895
9.920000000005489e-08,0.860166111017517,0.4406644440700681
1.1520000000006286e-07,0.8602169504608845,0.44086780184353835
1.3120000000007084e-07,0.8602677714205426,0.44107108568217007
1.4720000000007882e-07,0.8603185739032109,0.4412742956128436
1.632000000000868e-07,0.8603693579156075,0.4414774316624299
1.7920000000009478e-07,0.8604201234644475,0.4416804938577899
1.9520000000010276e-07,0.8604708705564437,0.4418834822257746
2.1120000000011073e-07,0.8605215991983064,0.4420863967932257
2.2720000000011871e-07,0.8605723093967437,0.44228923758697475
2.432000000001267e-07,0.8606230011584609,0.44249200463384364
2.5920000000013467e-07,0.8606736744901612,0.44269469796064465
2.7520000000014265e-07,0.860724329398545,0.44289731759418005
2.9120000000015063e-07,0.8607749658903107,0.4430998635612427
3.072000000001586e-07,0.8608255839721539,0.4433023358886155
3.232000000001666e-07,0.8608761836507679,0.4435047346030715
3.3920000000017456e-07,0.8609267649328436,0.44370705973137436
3.5520000000018254e-07,0.8609773278250694,0.4439093113002777
3.712000000001905e-07,0.8610278723341314,0.4441114893365255
3.872000000001985e-07,0.8610783984667131,0.44431359386685215
4.032000000002065e-07,0.8611289062294956,0.4445156249179823
4.1920000000021445e-07,0.8611793956291577,0.4447175825166306
4.3520000000022243e-07,0.8612298666723756,0.4449194666895023
4.512000000002304e-07,0.8612803193658232,0.4451212774632927
4.672000000002384e-07,0.861330753716172,0.44532301486468767
4.832000000002464e-07,0.8613811697300908,0.4455246789203631
4.992000000002543e-07,0.8614315674142463,0.4457262696569855
5.152000000002623e-07,0.8614819467753028,0.4459277871012113
5.312000000002703e-07,0.8615323078199218,0.44612923127968745
5.472000000002783e-07,0.8615826505547628,0.4463306022190513
5.632000000002863e-07,0.8616329749864826,0.4465318999459304
5.792000000002942e-07,0.8616832811217356,0.44673312448694247
5.952000000003022e-07,0.861733568967174,0.4469342758686959
6.112000000003102e-07,0.8617838385294473,0.44713535411778926
6.272000000003182e-07,0.8618340898152028,0.44733635926081144
6.432000000003261e-07,0.8618843228310854,0.44753729132434145
6.592000000003341e-07,0.8619345375837372,0.44773815033494874
6.752000000003421e-07,0.8619847340797984,0.44793893631919346
6.912000000003501e-07,0.8620349123259065,0.44813964930362576
7.072000000003581e-07,0.8620850723286965,0.44834028931478603
7.23200000000366e-07,0.8621352140948013,0.44854085637920527
7.39200000000374e-07,0.8621853376308511,0.44874135052340475
7.55200000000382e-07,0.862235442943474,0.44894177177389616
7.7120000000039e-07,0.8622855300392953,0.44914212015718147
7.87200000000398e-07,0.8623355989249382,0.4493423956997529
8.032000000004059e-07,0.8623856496070234,0.44954259842809324
8.192000000004139e-07,0.8624356820921689,0.44974272836867557
8.352000000004219e-07,0.8624856963869909,0.4499427855479634
8.512000000004299e-07,0.8625356924981027,0.4501427699924106
8.672000000004378e-07,0.8625856704321153,0.45034268172846137
8.832000000004458e-07,0.8626356301956376,0.45054252078255025
8.992000000004538e-07,0.8626855717952756,0.45074228718110226
9.152000000004618e-07,0.8627354952376332,0.45094198095053284
9.312000000004698e-07,0.862785400529312,0.4511416021172478
9.472000000004777e-07,0.8628352876769109,0.4513411507076433
9.632000000004857e-07,0.8628851566870265,0.4515406267481059
9.792000000004937e-07,0.8629350075662532,0.45174003026501264
9.952000000005017e-07,0.8629848403211827,0.45193936128473094
1.0112000000005097e-06,0.8630346549584047,0.4521386198336186
1.0272000000005176e-06,0.863084451484506,0.45233780593802375
1.0432000000005256e-06,0.8631342299060712,0.4525369196242851
1.0592000000005336e-06,0.863183990229683,0.45273596091873175
1.0752000000005416e-06,0.8632337324619208,0.4529349298476833
1.0912000000005495e-06,0.8632834566093623,0.45313382643744954
1.1072000000005575e-06,0.8633331626785827,0.4533326507143311
1.1232000000005655e-06,0.8633828506761546,0.45353140270461856
1.1392000000005735e-06,0.8634325206086483,0.4537300824345932
1.1552000000005815e-06,0.8634821724826317,0.45392868993052676
1.1712000000005894e-06,0.8635318063046704,0.4541272252186815
1.1872000000005974e-06,0.8635814220813275,0.4543256883253099
1.2032000000006054e-06,0.8636310198191638,0.454524079276655
1.2192000000006134e-06,0.8636805995247376,0.4547223980989503
1.2352000000006213e-06,0.863730161204605,0.45492064481842
1.2512000000006293e-06,0.8637797048653195,0.4551188194612782
1.2672000000006373e-06,0.8638292305134325,0.45531692205373003
1.2832000000006453e-06,0.8638787381554928,0.4555149526219709
1.2992000000006533e-06,0.8639282277980467,0.4557129111921866
1.3152000000006612e-06,0.8639776994476384,0.4559107977905534
1.3312000000006692e-06,0.8640271531108096,0.45610861244323814
1.3472000000006772e-06,0.8640765887940995,0.4563063551763982
1.3632000000006852e-06,0.8641260065040454,0.4565040260161814
1.3792000000006932e-06,0.8641754062471815,0.4567016249887259
1.3952000000007011e-06,0.8642247880300402,0.45689915212016063
1.4112000000007091e-06,0.8642741518591512,0.45709660743660485
1.427200000000717e-06,0.8643234977410421,0.45729399096416834
1.443200000000725e-06,0.8643728256822378,0.45749130272895133
1.459200000000733e-06,0.8644221356892612,0.4576885427570448
1.475200000000741e-06,0.8644714277686325,0.45788571107452997
1.491200000000749e-06,0.8645207019268697,0.4580828077074786
1.507200000000757e-06,0.8645699581704883,0.45827983268195327
1.523200000000765e-06,0.8646191965060017,0.4584767860240068
1.539200000000773e-06,0.8646684169399207,0.4586736677596826
1.555200000000781e-06,0.8647176194787536,0.45887047791501445
1.5712000000007889e-06,0.8647668041290067,0.459067216516027
1.5872000000007969e-06,0.8648159708971838,0.4592638835887352
1.6032000000008048e-06,0.8648651197897862,0.4594604791591447
1.6192000000008128e-06,0.8649142508133129,0.4596570032532515
1.6352000000008208e-06,0.8649633639742607,0.4598534558970424
1.6512000000008288e-06,0.8650124592791236,0.4600498371164946
1.6672000000008368e-06,0.8650615367343939,0.4602461469375757
1.6832000000008447e-06,0.8651105963465611,0.4604423853862441
1.6992000000008527e-06,0.8651596381221122,0.4606385524884487
1.7152000000008607e-06,0.8652086620675322,0.46083464827012893
1.7312000000008687e-06,0.8652576681893037,0.46103067275721493
1.7472000000008767e-06,0.8653066564939068,0.4612266259756272
1.7632000000008846e-06,0.8653556269878192,0.4614225079512768
1.7792000000008926e-06,0.8654045796775165,0.46161831871006576
1.7952000000009006e-06,0.8654535145694715,0.4618140582778862
1.8112000000009086e-06,0.8655024316701553,0.46200972668062107
1.8272000000009165e-06,0.865551330986036,0.4622053239441439
1.8432000000009245e-06,0.8656002125235797,0.46240085009431864
1.8592000000009325e-06,0.86564907628925,0.4625963051570002
1.8752000000009405e-06,0.8656979222895085,0.46279168915803387
1.8912000000009485e-06,0.8657467505308138,0.4629870021232555
1.9072000000009564e-06,0.8657955610196229,0.46318224407849146
1.9232000000009644e-06,0.8658443537623898,0.46337741504955904
1.9392000000009724e-06,0.8658931287655665,0.46357251506226593
1.9552000000009804e-06,0.8659418860356026,0.4637675441424105
1.9712000000009884e-06,0.8659906255789455,0.46396250231578173
1.9872000000009963e-06,0.8660393474020398,0.46415738960815917
2.0032000000010043e-06,0.8660880515113283,0.4643522060453131
2.0192000000010123e-06,0.8661367379132511,0.4645469516530042
2.0352000000010203e-06,0.866185406614246,0.4647416264569841
2.0512000000010282e-06,0.8662340576207487,0.46493623048299487
2.0672000000010362e-06,0.8662826909391923,0.4651307637567694
2.083200000001044e-06,0.8663313065760078,0.4653252263040311
2.099200000001052e-06,0.8663799045376235,0.46551961815049386
2.11520000000106e-06,0.8664284848304656,0.46571393932186245
2.131200000001068e-06,0.8664770474609581,0.46590818984383225
2.147200000001076e-06,0.8665255924355223,0.4661023697420893
2.163200000001084e-06,0.8665741197605776,0.4662964790423103
2.179200000001092e-06,0.8666226294425406,0.46649051777016265
2.1952000000011e-06,0.8666711214878261,0.46668448595130424
2.211200000001108e-06,0.866719595902846,0.4668783836113839
2.227200000001116e-06,0.8667680526940101,0.46707221077604066
2.243200000001124e-06,0.8668164918677262,0.4672659674709048
2.259200000001132e-06,0.8668649134303993,0.46745965372159715
2.27520000000114e-06,0.8669133173884322,0.4676532695537289
2.291200000001148e-06,0.8669617037482256,0.46784681499290226
2.307200000001156e-06,0.8670100725161775,0.46804029006470993
2.323200000001164e-06,0.8670584236986839,0.4682336947947356
2.339200000001172e-06,0.8671067573021383,0.46842702920855317
2.35520000000118e-06,0.867155073332932,0.46862029333172767
2.371200000001188e-06,0.8672033717974537,0.4688134871898147
2.3872000000011958e-06,0.8672516527020901,0.46900661080836054
2.4032000000012038e-06,0.8672999160532255,0.4691996642129021
2.4192000000012117e-06,0.8673481618572418,0.46939264742896714
2.4352000000012197e-06,0.8673963901205186,0.4695855604820742
2.4512000000012277e-06,0.8674446008494331,0.46977840339773247
2.4672000000012357e-06,0.8674927940503604,0.4699711762014417
2.4832000000012437e-06,0.8675409697296731,0.47016387891869255
2.4992000000012516e-06,0.8675891278937417,0.47035651157496644
2.5152000000012596e-06,0.8676372685489339,0.47054907419573544
2.5312000000012676e-06,0.8676853917016156,0.4707415668064624
2.5472000000012756e-06,0.8677334973581502,0.47093398943260084
2.5632000000012835e-06,0.8677815855248987,0.47112634209959503
2.5792000000012915e-06,0.8678296562082201,0.47131862483288006
2.5952000000012995e-06,0.8678777094144704,0.4715108376578817
2.6112000000013075e-06,0.8679257451500042,0.47170298060001664
2.6272000000013155e-06,0.867973763421173,0.47189505368469215
2.6432000000013234e-06,0.8680217642343266,0.47208705693730635
2.6592000000013314e-06,0.868069747595812,0.472278990383248
2.6752000000013394e-06,0.8681177135119742,0.47247085404789685
2.6912000000013474e-06,0.8681656619891558,0.47266264795662327
2.7072000000013554e-06,0.8682135930336972,0.4728543721347885
2.7232000000013633e-06,0.8682615066519361,0.47304602660774436
2.7392000000013713e-06,0.8683094028502084,0.47323761140083376
2.7552000000013793e-06,0.8683572816348475,0.47342912653939007
2.7712000000013873e-06,0.8684051430121844,0.47362057204873775
2.7872000000013952e-06,0.868452986988548,0.4738119479541918
2.8032000000014032e-06,0.8685008135702645,0.4740032542810582
2.819200000001411e-06,0.8685486227636584,0.47419449105463357
2.835200000001419e-06,0.8685964145750513,0.4743856583002054
2.851200000001427e-06,0.868644189010763,0.474576756043052
2.867200000001435e-06,0.8686919460771106,0.4747677843084425
2.883200000001443e-06,0.8687396857804093,0.474958743121637
2.899200000001451e-06,0.8687874081269715,0.4751496325078861
2.915200000001459e-06,0.8688351131231079,0.4753404524924315
2.931200000001467e-06,0.8688828007751264,0.4755312031005055
2.947200000001475e-06,0.8689304710893329,0.47572188435733126
2.963200000001483e-06,0.8689781240720307,0.47591249628812293
2.979200000001491e-06,0.8690257597295213,0.47610303891808536
2.995200000001499e-06,0.8690733780681036,0.47629351227241423
3.011200000001507e-06,0.869120979094074,0.47648391637629617
3.027200000001515e-06,0.8691685628137271,0.4766742512549087
3.043200000001523e-06,0.869216129233355,0.4768645169334199
3.059200000001531e-06,0.8692636783592472,0.4770547134369891
3.075200000001539e-06,0.8693112101976915,0.47724484079076596
3.091200000001547e-06,0.8693587247549728,0.4774348990198913
3.107200000001555e-06,0.8694062220373742,0.4776248881494969
3.123200000001563e-06,0.8694537020511763,0.4778148082047053
3.1392000000015708e-06,0.8695011648026575,0.47800465921062985
3.1552000000015787e-06,0.8695486102980937,0.47819444119237475
3.1712000000015867e-06,0.8695960385437588,0.47838415417503527
3.1872000000015947e-06,0.8696434495459243,0.47857379818369733
3.2032000000016027e-06,0.8696908433108594,0.4787633732434378
3.2192000000016107e-06,0.8697382198448311,0.47895287937932457
3.2352000000016186e-06,0.869785579154104,0.4791423166164162
3.2512000000016266e-06,0.8698329212449406,0.4793316849797624
3.2672000000016346e-06,0.8698802461236009,0.4795209844944036
3.2832000000016426e-06,0.8699275537963428,0.479710215185371
3.2992000000016506e-06,0.8699748442694217,0.47989937707768676
3.3152000000016585e-06,0.8700221175490911,0.48008847019636425
3.3312000000016665e-06,0.8700693736416019,0.4802774945664074
3.3472000000016745e-06,0.8701166125532028,0.48046645021281115
3.3632000000016825e-06,0.8701638342901403,0.48065533716056147
3.3792000000016904e-06,0.8702110388586588,0.4808441554346351
3.3952000000016984e-06,0.8702582262649999,0.4810329050599998
3.4112000000017064e-06,0.8703053965154035,0.4812215860616141
3.4272000000017144e-06,0.8703525496161069,0.48141019846442756
3.4432000000017224e-06,0.8703996855733451,0.4815987422933807
3.4592000000017303e-06,0.8704468043933512,0.481787217573405
3.4752000000017383e-06,0.8704939060823557,0.48197562432942265
3.4912000000017463e-06,0.8705409906465867,0.4821639625863471
3.5072000000017543e-06,0.8705880580922707,0.48235223236908253
3.5232000000017622e-06,0.8706351084256311,0.48254043370252414
3.5392000000017702e-06,0.8706821416528895,0.482728566611558
3.555200000001778e-06,0.8707291577802653,0.48291663112106104
3.571200000001786e-06,0.8707761568139754,0.4831046272559016
3.587200000001794e-06,0.8708231387602346,0.4832925550409386
3.603200000001802e-06,0.8708701036252555,0.4834804145010219
3.61920000000181e-06,0.8709170514152481,0.4836682056609925
3.635200000001818e-06,0.8709639821364206,0.48385592854568227
3.651200000001826e-06,0.8710108957949785,0.484043583179914
3.667200000001834e-06,0.8710577923971254,0.48423116958850165
3.683200000001842e-06,0.8711046719490625,0.48441868779624986
3.69920000000185e-06,0.8711515344569887,0.4846061378279546
3.715200000001858e-06,0.8711983799271006,0.48479351970840256
3.731200000001866e-06,0.8712452083655928,0.4849808334623715
3.747200000001874e-06,0.8712920197786576,0.48516807911463017
3.763200000001882e-06,0.8713388141724846,0.4853552566899384
3.77920000000189e-06,0.8713855915532617,0.48554236621304686
3.795200000001898e-06,0.8714323519271744,0.4857294077086974
3.811200000001906e-06,0.8714790953004057,0.4859163812016228
3.827200000001914e-06,0.8715258216791367,0.4861032867165468
3.843200000001922e-06,0.871572531069546,0.4862901242781842
3.85920000000193e-06,0.8716192234778102,0.48647689391124066
3.875200000001938e-06,0.8716658989101033,0.48666359564041306
3.891200000001946e-06,0.8717125573725973,0.48685022949038925
3.907200000001954e-06,0.871759198871462,0.4870367954858482
3.923200000001962e-06,0.8718058234128649,0.48722329365145967
3.93920000000197e-06,0.8718524310029712,0.4874097240118845
3.955200000001978e-06,0.8718990216479436,0.4875960865917748
3.971200000001986e-06,0.8719455953539433,0.4877823814157734
3.987200000001994e-06,0.8719921521271286,0.4879686085085144
4.003200000002002e-06,0.8720386919736558,0.488154767894623
4.01920000000201e-06,0.8720852148996787,0.48834085959871504
4.0352000000020176e-06,0.8721317209113495,0.48852688364539787
4.0512000000020255e-06,0.8721782100148174,0.48871284005926974
4.0672000000020335e-06,0.87222468221623,0.4888987288649199
4.0832000000020415e-06,0.8722711375217321,0.48908455008692864
4.0992000000020495e-06,0.8723175759374668,0.4892703037498674
4.1152000000020574e-06,0.8723639974695747,0.4894559898782987
4.1312000000020654e-06,0.872410402124194,0.489641608496776
4.147200000002073e-06,0.872456789907461,0.4898271596298439
4.163200000002081e-06,0.8725031608255096,0.4900126433020382
4.179200000002089e-06,0.8725495148844714,0.4901980595378855
4.195200000002097e-06,0.872595852090476,0.4903834083619037
4.211200000002105e-06,0.8726421724496505,0.4905686897986017
4.227200000002113e-06,0.8726884759681199,0.49075390387247975
4.243200000002121e-06,0.8727347626520072,0.49093905060802884
4.259200000002129e-06,0.8727810325074328,0.49112413002973104
4.275200000002137e-06,0.8728272855405149,0.49130914216205973
4.291200000002145e-06,0.8728735217573699,0.4914940870294794
4.307200000002153e-06,0.8729197411641114,0.49167896465644556
4.323200000002161e-06,0.8729659437668512,0.49186377506740475
4.339200000002169e-06,0.8730121295716987,0.4920485182867949
4.355200000002177e-06,0.8730582985847612,0.4922331943390448
4.371200000002185e-06,0.8731044508121436,0.49241780324857437
4.387200000002193e-06,0.8731505862599487,0.4926023450397948
4.403200000002201e-06,0.873196704934277,0.49278681973710803
4.419200000002209e-06,0.8732428068412269,0.4929712273649077
4.435200000002217e-06,0.8732888919868946,0.4931555679475783
4.451200000002225e-06,0.8733349603773738,0.4933398415094952
4.467200000002233e-06,0.8733810120187563,0.4935240480750253
4.483200000002241e-06,0.8734270469171317,0.49370818766852653
4.499200000002249e-06,0.8734730650785869,0.49389226031434785
4.515200000002257e-06,0.8735190665092074,0.49407626603682947
4.531200000002265e-06,0.8735650512150757,0.4942602048603027
4.547200000002273e-06,0.8736110192022725,0.49444407680909
4.563200000002281e-06,0.8736569704768763,0.49462788190750523
4.579200000002289e-06,0.8737029050449633,0.494811620179853
4.595200000002297e-06,0.8737488229126074,0.4949952916504292
4.611200000002305e-06,0.8737947240858803,0.49517889634352125
4.627200000002313e-06,0.8738406085708519,0.4953624342834073
4.643200000002321e-06,0.8738864763735892,0.4955459054943568
4.659200000002329e-06,0.8739323275001576,0.4957293100006304
4.675200000002337e-06,0.87397816195662,0.49591264782648004
4.691200000002345e-06,0.8740239797490372,0.4960959189961487
4.707200000002353e-06,0.8740697808834677,0.4962791235338706
4.723200000002361e-06,0.8741155653659678,0.496462261463871
4.739200000002369e-06,0.8741613332025917,0.4966453328103666
4.755200000002377e-06,0.8742070843993913,0.4968283375975652
4.7712000000023846e-06,0.8742528189624165,0.49701127584966576
4.7872000000023925e-06,0.8742985368977146,0.4971941475908584
4.8032000000024005e-06,0.8743442382113311,0.4973769528453245
4.8192000000024085e-06,0.8743899229093092,0.49755969163723673
4.8352000000024165e-06,0.8744355909976897,0.49774236399075894
4.8512000000024244e-06,0.8744812424825115,0.4979249699300461
4.8672000000024324e-06,0.8745268773698112,0.4981075094792445
4.88320000000244e-06,0.8745724956656229,0.4982899826624914
4.899200000002448e-06,0.874618097375979,0.4984723895039157
4.915200000002456e-06,0.8746636825069093,0.4986547300276372
4.931200000002464e-06,0.8747092510644418,0.49883700425776717
4.947200000002472e-06,0.874754803054602,0.4990192122184079
4.96320000000248e-06,0.8748003384834132,0.499201353933653
4.979200000002488e-06,0.8748458573568969,0.4993834294275874
4.995200000002496e-06,0.8748913596810718,0.49956543872428716
5.011200000002504e-06,0.8749368454619549,0.49974738184781964
5.027200000002512e-06,0.8749823147055609,0.49992925882224326
5.04320000000252e-06,0.875027767417902,0.5001110696716079
5.059200000002528e-06,0.8750732036049887,0.5002928144199549
5.075200000002536e-06,0.8751186232728291,0.5004744930913164
5.091200000002544e-06,0.875164026427429,0.5006561057097161
5.107200000002552e-06,0.8752094130747923,0.500837652299169
5.12320000000256e-06,0.8752547832209203,0.5010191328836812
5.139200000002568e-06,0.8753001368718125,0.50120054748725
5.155200000002576e-06,0.8753454740334661,0.5013818961338643
