time,vin,vout
0.0,3.7129340041101234e-11,-1.0488280708839088e-10
2.0160040428707227e-08,0.009451461605604266,0.009445690993521914
6.048012128959113e-08,0.02835726865788833,0.02832842145083392
1.4112028300788948e-07,0.06618617040127629,0.06604201944247722
2.4140764006211346e-07,0.11326382505153042,0.11284784996838117
4.419823541705614e-07,0.20752557431693552,0.2061401911255006
8.431317823909268e-07,0.3964724176763894,0.391454838960321
1.5999999999974368e-06,0.7544882576740313,0.7365352269778944
1.6802298856422038e-06,0.7549351105843229,0.7351946682469898
1.8406896569317377e-06,0.7558271897819208,0.7325184306541956
2.161609199507336e-06,0.7576016239017455,0.7271951282947863
2.803448284658533e-06,0.76111194709816,0.71666415870551
4.0871264549609265e-06,0.7679811842295298,0.6960564473114129
5.687126454961833e-06,0.7762675705070469,0.6711972884788628
7.287126454962739e-06,0.7842580144175095,0.6472259567474751
8.887126454963645e-06,0.79196308533117,0.624110744006494
1.0487126454964552e-05,0.7993929751407708,0.6018210745776904
1.2087126454965458e-05,0.8065575117428858,0.5803274647713441
1.3687126454966364e-05,0.8134661720377834,0.559601483886654
1.528712645496727e-05,0.820128094465005,0.5396157166049874
1.6887126454968177e-05,0.8265520910912552,0.5203437267262383
1.8487126454969083e-05,0.8327466592665674,0.5017600222003014
2.008712645496999e-05,0.8387199928641895,0.4838400214074331
2.1687126454970895e-05,0.8444799931190404,0.4665600206428825
2.32871264549718e-05,0.8500342790790745,0.44989716276277925
2.4887126454972708e-05,0.8553901976833928,0.43382940694982236
2.6487126454973614e-05,0.8605548334804143,0.41833549955875715
2.808712645497452e-05,0.8655350179989711,0.40339494600308756
2.9687126454975427e-05,0.8703373387847222,0.38898798364583453
3.128712645497633e-05,0.8749681481138395,0.3750955556584837
3.288712645497724e-05,0.8794335713954874,0.36169928581353716
3.4487126454978145e-05,0.8837395152742198,0.3487814541773393
3.608712645497905e-05,0.8878916754429977,0.336324973671006
3.768712645497996e-05,0.8918955441771769,0.3243133674684706
3.9287126454980864e-05,0.8957564175994204,0.3127307472017393
4.088712645498177e-05,0.8994794026851557,0.3015617919445348
4.2487126454982677e-05,0.9030694240178291,0.2907917279465163
4.408712645498358e-05,0.9065312303029066,0.2804063090912837
4.568712645498449e-05,0.9098694006492312,0.2703917980523092
4.7287126454985395e-05,0.9130883506260438,0.26073494812186915
4.88871264549863e-05,0.9161923381036857,0.25142298568894617
5.048712645498721e-05,0.9191854688856966,0.24244359334291232
5.2087126454988114e-05,0.9220717021397786,0.23378489358066534
5.368712645498902e-05,0.9248548556347856,0.22543543309564085
5.528712645498993e-05,0.9275386107906867,0.2173841676279401
5.688712645499083e-05,0.9301265175481619,0.20962044735551366
5.848712645499174e-05,0.9326219990642994,0.20213400280710303
6.0087126454992645e-05,0.9350283562405743,0.19491493127827797
6.168712645499355e-05,0.9373487720891249,0.187953683732625
6.328712645499446e-05,0.9395863159430854,0.18124105217074638
6.488712645499536e-05,0.9417439475165462,0.17476815745036223
6.648712645499627e-05,0.9438245208195265,0.1685264375414205
6.808712645499718e-05,0.9458307879331148,0.16250763620065567
6.968712645499808e-05,0.9477654026497887,0.15670379205063178
7.128712645499899e-05,0.9496309239837247,0.1511072280488237
7.28871264549999e-05,0.9514298195557345,0.14571054133279426
7.44871264550008e-05,0.953164468857316,0.14050659342805238
7.608712645500171e-05,0.9548371663981255,0.13548850080562147
7.768712645500261e-05,0.9564501247410503,0.13064962577685013
7.928712645500352e-05,0.95800547742887,0.12598356771339148
8.088712645500443e-05,0.9595052818064101,0.12148415458077033
8.248712645500533e-05,0.9609515217418958,0.1171454347743146
8.408712645500624e-05,0.9623461102511132,0.11296166924666018
8.568712645500715e-05,0.9636908920278591,0.10892732391642257
8.728712645500805e-05,0.9649876458840085,0.1050370623479806
8.888712645500896e-05,0.9662380871024366,0.10128573869269564
9.048712645500986e-05,0.9674438697059204,0.09766839088224177
9.208712645501077e-05,0.9686065886449944,0.09418023406501852
9.368712645501168e-05,0.969727781907672,0.09081665427698116
9.528712645501258e-05,0.9708089325538272,0.08757320233851851
9.688712645501349e-05,0.9718514706769055,0.08444558796928658
9.84871264550144e-05,0.9728567752955866,0.08142967411323998
0.0001000871264550153,0.973826176177888,0.07852147146633992
0.00010168712645501621,0.9747609556001053,0.0757171331996842
0.00010328712645501711,0.9756623500429589,0.07301294987112439
0.00010488712645501802,0.9765315518271392,0.07040534451858471
0.00010648712645501893,0.977369710690456,0.06789086792863575
0.00010808712645501983,0.9781779353086538,0.06546619407404153
0.00010968712645502074,0.9789572947619168,0.0631281157142548
0.00011128712645502165,0.9797088199489908,0.06087354015303115
0.00011288712645502255,0.9804335049508123,0.0586994851475654
0.00011448712645502346,0.9811323083454272,0.056603074963724964
0.00011608712645502436,0.9818061544759464,0.05458153657216258
0.00011768712645502527,0.9824559346732348,0.05263219598030067
0.00011928712645502618,0.9830825084349046,0.05075247469528954
0.00012088712645502708,0.98368670456223,0.04893988631331536
0.000122487126455028,0.9842693222564357,0.04719203323069665
0.0001240871264550289,0.9848311321758494,0.04550660347245805
0.0001256871264550298,0.9853728774552833,0.043881367634156065
0.0001272871264550307,0.9858952746890224,0.042314175932935516
0.00012888712645503161,0.9863990148786997,0.04080295536390166
0.00013048712645503252,0.9868847643473183,0.03934570695804862
0.00013208712645503343,0.9873531656206294,0.03794050313811925
0.00013368712645503433,0.9878048382770339,0.03658548516889926
0.00013528712645503524,0.9882403797671407,0.03527886069858244
0.00013688712645503615,0.9886603662040288,0.03401890138791919
0.00013848712645503705,0.9890653531253129,0.032803940624064554
0.00014008712645503796,0.9894558762279804,0.03163237131606256
0.00014168712645503886,0.9898324520769812,0.030502643769060755
0.00014328712645503977,0.990195578788517,0.02941326363445118
0.00014488712645504068,0.9905457366889263,0.028362789933220167
0.00014648712645504158,0.9908833889500371,0.027349833149891922
0.0001480871264550425,0.9912089822018209,0.026373053394538104
0.0001496871264550434,0.9915229471231859,0.02543115863044887
0.0001512871264550443,0.9918256990116426,0.024522902965074755
0.0001528871264550452,0.9921176383326551,0.023647085002036272
0.00015448712645504611,0.9923991512493456,0.02280254625196343
0.00015608712645504702,0.9926706101332987,0.021988169600108853
0.00015768712645504793,0.9929323740571088,0.02120287782867558
0.00015928712645504883,0.9931847892693548,0.020445632191936958
0.00016088712645504974,0.9934281896525939,0.019715431042226728
0.00016248712645505065,0.9936628971650007,0.019011308505003877
0.00016408712645505155,0.9938892222662501,0.01833233320125338
0.00016568712645505246,0.9941074643281699,0.01767760701549448
0.00016728712645505336,0.9943179120307362,0.017046263907799064
0.00016888712645505427,0.9945208437439242,0.01643746876823493
0.00017048712645505518,0.9947165278959251,0.015850416312224724
0.00017208712645505608,0.9949052233282143,0.015284330015360337
0.000173687126455057,0.9950871796379203,0.014738461086239774
0.0001752871264550579,0.9952626375079944,0.014212087476016877
0.0001768871264550588,0.9954318290255667,0.013704512923302548
0.0001784871264550597,0.9955949779889394,0.013215066033184897
0.00018008712645506061,0.9957523002036212,0.012743099389143975
0.00018168712645506152,0.9959040037677775,0.012287988696674468
0.00018328712645506243,0.9960502893474987,0.011849131957506476
0.00018488712645506333,0.9961913504422321,0.01142594867331137
0.00018648712645506424,0.9963273736407223,0.011017879077834691
0.00018808712645506515,0.9964585388678404,0.010624383396484416
0.00018968712645506605,0.9965850196225604,0.010244941132324326
0.00019128712645506696,0.9967069832074688,0.009879050377598064
0.00019288712645506786,0.9968245909500603,0.009526227149827649
0.00019448712645506877,0.9969379984161287,0.009186004751618904
0.00019608712645506968,0.9970473556155524,0.00885793315334682
0.00019768712645507058,0.99715280720071,0.008541578397869398
0.0001992871264550715,0.9972544926578281,0.0082365220265177
0.0002008871264550724,0.9973525464914772,0.007942360525570624
0.0002024871264550733,0.9974470984024968,0.007658704792515625
0.0002040871264550742,0.9975382734595499,0.007385179621353877
0.00020568712645507511,0.9976261922645652,0.007121423206304711
0.00020728712645507602,0.9977109711122596,0.006867086663222888
0.00020888712645507693,0.9977927221439663,0.006621833568109525
0.00021048712645507783,0.997871553495967,0.0063853395121054035
0.00021208712645507874,0.9979475694425397,0.006157291672387766
0.00021368712645507965,0.998020870533877,0.005937388398373655
0.00021528712645508055,0.9980915537290951,0.0057253388127169735
0.00021688712645508146,0.9981597125244857,0.005520862426549811
0.00021848712645508236,0.9982254370771817,0.0053236887684581236
0.00022008712645508327,0.9982888143244255,0.0051335570267280195
0.00022168712645508418,0.9983499280985523,0.004950215704343841
0.00022328712645508508,0.998408859237891,0.004773422286332818
0.000224887126455086,0.9984656856936811,0.004602942918964348
0.0002264871264550869,0.9985204826331922,0.00443855210042976
0.0002280871264550878,0.9985733225391497,0.004280032382557697
0.0002296871264550887,0.9986242753056076,0.004127174083179752
0.00023128712645508961,0.9986734083304074,0.003979775008780773
0.00023288712645509052,0.9987207866043218,0.0038376401870391375
0.00023448712645509143,0.9987664727970248,0.003700581608931053
0.00023608712645509233,0.9988105273399885,0.0035684179800409277
0.00023768712645509324,0.998853008506416,0.0034409744807522014
0.00023928712645509415,0.99889397248833,0.003318082535011646
0.00024088712645509505,0.9989334734708903,0.003199579587333634
0.00024248712645509596,0.9989715637040724,0.003085308887785798
0.00024408712645509686,0.999008293571785,0.0029751192846516616
0.00024568712645509777,0.9990437116585058,0.0028688650244844682
0.0002472871264550987,0.9990778648135606,0.002766405559325835
0.0002488871264550996,0.9991107982130758,0.002667605360778036
0.0002504871264551005,0.9991425554197514,0.0025723337407499436
0.0002520871264551014,0.9991731784404747,0.0024804646785804296
0.0002536871264551023,0.9992027077818867,0.002391876654346037
0.0002552871264551032,0.9992311825039617,0.002306452488119004
0.0002568871264551041,0.9992586402716774,0.0022240791849718056
0.000258487126455105,0.9992851174048317,0.00214464778550838
0.0002600871264551059,0.9993106489260888,0.002068053221741306
0.00026168712645510683,0.9993352686072983,0.001994194178105979
0.00026328712645510774,0.9993590090141817,0.001922972957460578
0.00026488712645510865,0.9993819015493891,0.0018542953518365657
0.00026648712645510955,0.9994039764940529,0.0017880705178415779
0.00026808712645511046,0.9994252630478372,0.001724210856490549
0.00026968712645511136,0.9994457893675565,0.001662631897329292
0.00027128712645511227,0.9994655826044306,0.0016032521867117566
0.0002728871264551132,0.9994846689399859,0.0015459931800427817
0.0002744871264551141,0.9995030736207007,0.0014907791378985236
0.000276087126455115,0.9995208209913915,0.0014375370258323805
0.0002776871264551159,0.9995379345274131,0.0013861964177669384
0.0002792871264551168,0.9995544368657199,0.0013366894028470355
0.0002808871264551177,0.9995703498348022,0.0012889504956036246
0.0002824871264551186,0.9995856944835573,0.0012429165493303973
0.0002840871264551195,0.9996004911091447,0.0011985266725690336
0.0002856871264551204,0.9996147592838173,0.0011557221485479774
0.00028728712645512133,0.9996285178808246,0.0011144463575291086
0.00028888712645512224,0.9996417850993679,0.0010746447019041039
0.00029048712645512315,0.9996545784886754,0.001036264533978315
0.00029208712645512405,0.9996669149712218,0.00099925508633536
0.00029368712645512496,0.9996788108651088,0.0009635674046826193
0.00029528712645512586,0.9996902819056405,0.0009291542830869304
0.00029688712645512677,0.999701343266151,0.0008959702015458593
0.0002984871264551277,0.9997120095780759,0.0008639712657780851
0.0003000871264551286,0.999722294950287,0.0008331151491426381
0.0003016871264551295,0.9997322129877767,0.0008033610366731114
0.0003032871264551304,0.999741776809643,0.0007746695710786344
0.0003048871264551313,0.99975099906644,0.0007470028006816287
0.0003064871264551322,0.9997598919569245,0.0007203241292290663
0.0003080871264551331,0.999768467244178,0.0006945982674717577
0.000309687126455134,0.9997767362711717,0.0006697911864906869
0.0003112871264551349,0.999784709975773,0.000645870072687682
0.00031288712645513583,0.9997923989052084,0.0006228032843763609
0.00031448712645513674,0.9997998132300238,0.0006005603099356049
0.00031608712645513765,0.9998069627575222,0.0005791117274370761
0.00031768712645513855,0.9998138569447533,0.0005584291657425577
0.00031928712645513946,0.9998205049110132,0.0005384852669672036
0.00032088712645514036,0.999826915449905,0.0005192536502894862
0.00032248712645514127,0.9998330970409794,0.0005007088770646595
0.0003240871264551422,0.9998390578609447,0.0004828264171699015
0.0003256871264551431,0.9998448057944817,0.0004655826165561594
0.000327287126455144,0.999850348444679,0.0004489546659651733
0.0003288871264551449,0.9998556931430845,0.0004329205707535033
0.0003304871264551458,0.9998608469594028,0.00041745912179813605
0.0003320871264551467,0.9998658167108516,0.000402549867447477
0.0003336871264551476,0.9998706089711785,0.000388173086467658
0.0003352871264551485,0.9998752300793515,0.0003743097619519631
0.00033688712645514943,0.9998796861479458,0.00036094155616794854
0.00033848712645515033,0.9998839830712329,0.0003480507863043991
0.00034008712645515124,0.999888126532975,0.0003356204010795949
0.00034168712645515215,0.9998921220139402,0.00032363395818391094
0.00034328712645515305,0.9998959747991566,0.000312075602534434
0.00034488712645515396,0.9998996899849001,0.00030093004530007406
0.00034648712645515486,0.9999032724854416,0.000290182543684514
0.00034808712645515577,0.9999067270395321,0.0002798188814089331
0.0003496871264551567,0.9999100582166909,0.0002698253499293646
0.0003512871264551576,0.9999132704232372,0.00026018873028887946
0.0003528871264551585,0.9999163679081214,0.0002508962756356814
0.0003544871264551594,0.9999193547685462,0.00024193569436359308
0.0003560871264551603,0.9999222349553831,0.00023329513384995337
0.0003576871264551612,0.9999250122784061,0.00022496316478470835
0.0003592871264551621,0.9999276904113193,0.00021692876604151312
0.000360887126455163,0.99993027289663,0.0002091813101121609
0.00036248712645516393,0.9999327631503221,0.0002017105490372817
0.00036408712645516483,0.9999351644663819,0.00019450660085740257
0.00036568712645516574,0.9999374800211537,0.00018755993654073766
0.00036728712645516665,0.9999397128775421,0.00018086136737949232
0.00036888712645516755,0.9999418659890585,0.0001744020328304785
0.00037048712645516846,0.9999439422037341,0.0001681733888000414
0.00037208712645516936,0.9999459442678873,0.00016216719634409849
0.00037368712645517027,0.9999478748297472,0.00015637551075942113
0.0003752871264551712,0.9999497364429706,0.00015079067108991762
0.0003768871264551721,0.9999515315700074,0.00014540528997997182
0.000378487126455173,0.9999532625853637,0.00014021224390881049
0.0003800871264551739,0.9999549317787443,0.0001352046637700388
0.0003816871264551748,0.9999565413580749,0.0001303759257784698
0.0003832871264551757,0.9999580934524291,0.0001257196427147944
0.0003848871264551766,0.9999595901148437,0.00012122965547634035
0.0003864871264551775,0.9999610333250272,0.00011690002492303897
0.00038808712645517843,0.9999624249919908,0.00011272502403325557
0.00038968712645517933,0.9999637669565613,0.00010869913031652523
0.00039128712645518024,0.9999650609938284,0.00010481701852105285
0.00039288712645518115,0.9999663088154762,0.00010107355357258374
0.00039448712645518205,0.9999675120720669,9.746378380282028e-05
0.00039608712645518296,0.999968672355207,9.398293438100946e-05
0.00039768712645518386,0.9999697911996638,9.062640101020758e-05
0.00039928712645518477,0.9999708700853903,8.73897438316007e-05
0.0004008871264551857,0.9999719104394839,8.426868155253509e-05
0.0004024871264551866,0.999972913638074,8.125908578326957e-05
0.0004040871264551875,0.999973881008143,7.835697557712074e-05
0.0004056871264551884,0.9999748138292803,7.555851216323184e-05
0.0004072871264551893,0.9999757133353767,7.285999387085518e-05
0.0004088871264551902,0.9999765807162576,7.025785123404571e-05
0.0004104871264551911,0.9999774171192477,6.774864226055666e-05
0.000412087126455192,0.9999782236507031,6.532904789413596e-05
0.00041368712645519293,0.9999790013774633,6.29958676120479e-05
0.00041528712645519383,0.9999797513282681,6.0746015197343795e-05
0.00041688712645519474,0.9999804744951154,5.857651465424052e-05
0.00041848712645519565,0.9999811718345755,5.648449627360108e-05
0.00042008712645519655,0.9999818442690561,5.446719283652701e-05
0.00042168712645519746,0.9999824926880173,5.252193594862398e-05
0.00042328712645519836,0.9999831179491606,5.064615252292626e-05
0.00042488712645519927,0.9999837208795471,4.883736136107597e-05
0.0004264871264552002,0.9999843022767055,4.709316988338319e-05
0.0004280871264552011,0.9999848629096811,4.541127095991637e-05
0.000429687126455202,0.9999854035200494,4.378943985394734e-05
0.0004312871264552029,0.9999859248229042,4.2225531287187756e-05
0.0004328871264552038,0.9999864275078024,4.071747660039371e-05
0.0004344871264552047,0.9999869122396664,3.926328100734011e-05
0.0004360871264552056,0.9999873796596783,3.78610209714747e-05
0.0004376871264552065,0.9999878303861174,3.650884165018464e-05
0.00043928712645520743,0.9999882650151853,3.520495444930827e-05
0.00044088712645520833,0.999988684121785,3.394763464681372e-05
0.00044248712645520924,0.9999890882602935,3.2735219124724324e-05
0.00044408712645521015,0.9999894779652823,3.1566104155333896e-05
0.00044568712645521105,0.9999898537522373,3.043874329344831e-05
0.00044728712645521196,0.9999902161182296,2.9351645319808384e-05
0.00044888712645521286,0.9999905655425768,2.830337227122115e-05
0.00045048712645521377,0.9999909024874859,2.7292537548739837e-05
0.0004520871264552147,0.9999912273986459,2.6317804063813455e-05
0.0004536871264552156,0.9999915407058374,2.5377882490240644e-05
0.0004552871264552165,0.9999918428234871,2.4471529545100346e-05
0.0004568871264552174,0.999992134151219,2.359754634639888e-05
0.0004584871264552183,0.9999924150743903,2.275477683477689e-05
0.0004600871264552192,0.9999926859645896,2.1942106232408776e-05
0.0004616871264552201,0.9999929471801418,2.115845958328144e-05
0.000463287126455221,0.9999931990665646,2.0402800311791758e-05
0.00046488712645522193,0.9999934419570438,1.9674128871605134e-05
0.00046648712645522283,0.9999936761728645,1.8971481412943803e-05
0.00046808712645522374,0.9999939020238322,1.829392850405398e-05
0.00046968712645522465,0.999994119808696,1.7640573915289615e-05
0.00047128712645522555,0.9999943298155293,1.7010553419405383e-05
0.00047288712645522646,0.9999945323221173,1.6403033654577293e-05
0.00047448712645522736,0.9999947275963279,1.581721102461575e-05
0.00047608712645522827,0.9999949158964571,1.5252310628821597e-05
0.0004776871264552292,0.9999950974715847,1.4707585250350874e-05
0.0004792871264552301,0.9999952725618846,1.4182314347910285e-05
0.000480887126455231,0.9999954413989598,1.3675803120949404e-05
0.0004824871264552319,0.9999956042061418,1.3187381582846491e-05
0.0004840871264552328,0.9999957611987793,1.2716403668955323e-05
0.0004856871264552337,0.9999959125845359,1.226224639405693e-05
0.0004872871264552346,0.9999960585636604,1.1824309024022206e-05
0.0004888871264552355,0.9999961993292438,1.1402012273342699e-05
0.0004904871264552364,0.9999963350674855,1.0994797549845892e-05
0.0004920871264552373,0.9999964659579323,1.0602126208403284e-05
0.0004936871264552382,0.9999965921737212,1.0223478844495482e-05
0.0004952871264552391,0.9999967138818028,9.85835460054485e-06
