time,vin,vout
0.0,0.12389307063828449,0.49257228254693514
1.6000000000007978e-08,0.12504846308669945,0.49239385234059263
3.2000000000015957e-08,0.12620401718119753,0.49221606871858253
4.8000000000023935e-08,0.127359732863009,0.49203893144582606
6.400000000003191e-08,0.12851561007338552,0.4918624402873297
8.000000000003989e-08,0.12967164875360013,0.49168659500818573
9.600000000004787e-08,0.1308278488449472,0.4915113953735716
1.1200000000005585e-07,0.13198421028874238,0.49133684114875
1.2800000000006383e-07,0.13314073302632282,0.4911629320990693
1.440000000000718e-07,0.1342974169990468,0.49098966798996285
1.6000000000007978e-07,0.13545426214829406,0.4908170485869495
1.7600000000008776e-07,0.13661126841546564,0.4906450736556335
1.9200000000009574e-07,0.1377684357419838,0.49047374296170365
2.0800000000010372e-07,0.13892576406929216,0.49030305627093473
2.240000000001117e-07,0.14008325333885566,0.4901330133491863
2.400000000001197e-07,0.14124090349216045,0.4899636139624031
2.5600000000012765e-07,0.142398714470714,0.4897948578766149
2.7200000000013563e-07,0.143556686216045,0.48962674485793656
2.880000000001436e-07,0.1447148186697035,0.48945927467256817
3.040000000001516e-07,0.1458731117732607,0.4892924470867946
3.2000000000015957e-07,0.14703156546830903,0.48912626186698555
3.3600000000016754e-07,0.14819017969646225,0.4889607187795959
3.520000000001755e-07,0.14934895439935525,0.4887958175911656
3.680000000001835e-07,0.15050788951864422,0.48863155806831904
3.840000000001915e-07,0.1516669849960065,0.48846793997776583
4.0000000000019946e-07,0.15282624077314075,0.48830496308630034
4.1600000000020744e-07,0.15398565679176662,0.48814262716080153
4.320000000002154e-07,0.1551452329936252,0.4879809319682334
4.480000000002234e-07,0.1563049693204785,0.48781987727564424
4.6400000000023137e-07,0.1574648657141099,0.4876594628501674
4.800000000002393e-07,0.15862492211632392,0.4874996884590211
4.960000000002473e-07,0.15978513846894613,0.48734055386950753
5.120000000002553e-07,0.16094551471382335,0.48718205884901394
5.280000000002633e-07,0.16210605079282345,0.48702420316501205
5.440000000002713e-07,0.1632667466478356,0.4868669865850582
5.600000000002792e-07,0.1644276022207699,0.4867104088767931
5.760000000002872e-07,0.16558861745355774,0.48655446980794204
5.920000000002952e-07,0.1667497922881515,0.4863991691463147
6.080000000003032e-07,0.16791112666652475,0.4862445066598052
6.240000000003112e-07,0.169072620530672,0.48609048211639194
6.400000000003191e-07,0.1702342738226091,0.485937095284138
6.560000000003271e-07,0.17139608648437282,0.48578434593119035
6.720000000003351e-07,0.172558058458021,0.4856322338257807
6.880000000003431e-07,0.1737201896856326,0.4854807587362247
7.04000000000351e-07,0.1748824801093076,0.4853299204309223
7.20000000000359e-07,0.17604492967116706,0.48517971867835774
7.36000000000367e-07,0.17720753831335304,0.4850301532470993
7.52000000000375e-07,0.17837030597802866,0.48488122390579946
7.68000000000383e-07,0.17953323260737816,0.48473293042319493
7.840000000003909e-07,0.1806963181436066,0.4845852725681063
8.000000000003989e-07,0.18185956252894023,0.4844382501094384
8.160000000004069e-07,0.1830229657056262,0.48429186281618
8.320000000004149e-07,0.1841865276159327,0.48414611045740363
8.480000000004229e-07,0.18535024820214896,0.48400099280226616
8.640000000004308e-07,0.18651412740658507,0.48385650962000826
8.800000000004388e-07,0.1876781651715722,0.48371266067995433
8.960000000004468e-07,0.18884236143946245,0.483569445751513
9.120000000004548e-07,0.19000671615262887,0.48342686460417633
9.280000000004627e-07,0.19117122925346547,0.4832849170075203
9.440000000004707e-07,0.1923359006843872,0.48314360273120477
9.600000000004787e-07,0.19350073038782994,0.4830029215449734
9.760000000004867e-07,0.19466571830625057,0.4828628732186534
9.920000000004947e-07,0.19583086438212674,0.4827234575221558
1.0080000000005026e-06,0.19699616855795715,0.4825846742254751
1.0240000000005106e-06,0.19816163077626137,0.4824465230986895
1.0400000000005186e-06,0.19932725097957985,0.482309003911961
1.0560000000005266e-06,0.20049302911047395,0.482172116435535
1.0720000000005345e-06,0.20165896511152587,0.4820358604397403
1.0880000000005425e-06,0.2028250589253387,0.48190023569498924
1.1040000000005505e-06,0.20399131049453642,0.4817652419717778
1.1200000000005585e-06,0.20515771976176392,0.48163087904068536
1.1360000000005665e-06,0.20632428666968683,0.48149714667237453
1.1520000000005744e-06,0.20749101116099167,0.4813640446375916
1.1680000000005824e-06,0.20865789317838584,0.48123157270716593
1.1840000000005904e-06,0.2098249326645976,0.48109973065201045
1.2000000000005984e-06,0.21099212956237584,0.4809685182431212
1.2160000000006064e-06,0.2121594838144905,0.4808379352515774
1.2320000000006143e-06,0.21332699536373223,0.4807079814485418
1.2480000000006223e-06,0.2144946641529124,0.48057865660526006
1.2640000000006303e-06,0.21566249012486324,0.4804499604930611
1.2800000000006383e-06,0.21683047322243781,0.4803218928833571
1.2960000000006462e-06,0.21799861338850993,0.4801944535476431
1.3120000000006542e-06,0.2191669105659741,0.48006764225749743
1.3280000000006622e-06,0.2203353646977457,0.4799414587845814
1.3440000000006702e-06,0.22150397572676078,0.47981590290063925
1.3600000000006782e-06,0.22267274359597616,0.4796909743774984
1.3760000000006861e-06,0.22384166824836946,0.4795666729870692
1.3920000000006941e-06,0.2250107496269389,0.4794429985013446
1.408000000000702e-06,0.2261799876747036,0.4793199506924009
1.42400000000071e-06,0.22734938233470325,0.4791975293323972
1.440000000000718e-06,0.2285189335499983,0.47907573419357496
1.456000000000726e-06,0.2296886412636699,0.47895456504825895
1.472000000000734e-06,0.23085850541881986,0.4788340216688565
1.488000000000742e-06,0.23202852595857076,0.4787141038278578
1.50400000000075e-06,0.23319870282606586,0.47859481129783565
1.520000000000758e-06,0.2343690359644689,0.47847614385144555
1.536000000000766e-06,0.2355395253169646,0.4783581012614258
1.552000000000774e-06,0.23671017082675802,0.4782406833005971
1.5680000000007819e-06,0.23788097243707507,0.4781238897418629
1.5840000000007899e-06,0.2390519300911622,0.47800772035820915
1.6000000000007978e-06,0.24022304373228662,0.4778921749227043
1.6160000000008058e-06,0.24139431330373598,0.4777772532084994
1.6320000000008138e-06,0.2425657387488187,0.4776629549888279
1.6480000000008218e-06,0.24373732001086373,0.47754928003700564
1.6640000000008297e-06,0.24490905703322072,0.47743622812643116
1.6800000000008377e-06,0.24608094975925981,0.4773237990305852
1.6960000000008457e-06,0.24725299813237178,0.4772119925230307
1.7120000000008537e-06,0.24842520209596802,0.47710080837741314
1.7280000000008617e-06,0.2495975615934804,0.4769902463674603
1.7440000000008696e-06,0.2507700765683615,0.47688030626698213
1.7600000000008776e-06,0.2519427469640842,0.4767709878498707
1.7760000000008856e-06,0.2531155727241422,0.4766622908901005
1.7920000000008936e-06,0.25428855379204973,0.4765542151617281
1.8080000000009016e-06,0.2554616901113414,0.4764467604388924
1.8240000000009095e-06,0.2566349816255724,0.47633992649581414
1.8400000000009175e-06,0.25780842827831857,0.47623371310679624
1.8560000000009255e-06,0.258982030013176,0.4761281200462237
1.8720000000009335e-06,0.26015578677376155,0.47602314708856347
1.8880000000009414e-06,0.2613296985037125,0.4759187940083648
1.9040000000009494e-06,0.26250376514668655,0.4758150605802585
1.9200000000009574e-06,0.26367798664636194,0.4757119465789577
1.9360000000009654e-06,0.2648523629464374,0.475609451779257
1.9520000000009734e-06,0.26602689399063195,0.47550757595603316
1.9680000000009813e-06,0.2672015797226855,0.4754063188842447
1.9840000000009893e-06,0.2683764200863579,0.4753056803389322
2.0000000000009973e-06,0.2695514150254299,0.47520566009521764
2.0160000000010053e-06,0.27072656448370236,0.475106257928305
2.0320000000010132e-06,0.27190186840499664,0.47500747361347995
2.0480000000010212e-06,0.2730773267331547,0.47490930692610983
2.064000000001029e-06,0.27425293941203877,0.47481175764164363
2.080000000001037e-06,0.27542870638553146,0.474714825535612
2.096000000001045e-06,0.27660462759753596,0.4746185103836274
2.112000000001053e-06,0.27778070299197555,0.4745228119613835
2.128000000001061e-06,0.27895693251279424,0.47442773004465594
2.144000000001069e-06,0.2801333161039562,0.4743332644093014
2.160000000001077e-06,0.28130985370944606,0.4742394148312583
2.176000000001085e-06,0.2824865452732687,0.47414618108654666
2.192000000001093e-06,0.28366339073944963,0.4740535629512678
2.208000000001101e-06,0.2848403900520343,0.4739615602016044
2.224000000001109e-06,0.2860175431550889,0.4738701726138204
2.240000000001117e-06,0.2871948499926998,0.4737793999642614
2.256000000001125e-06,0.2883723105089736,0.47368924202935414
2.272000000001133e-06,0.28954992464803736,0.47359969858560674
2.288000000001141e-06,0.2907276923540384,0.47351076940960835
2.304000000001149e-06,0.29190561357114425,0.4734224542780296
2.320000000001157e-06,0.293083688243543,0.4733347529676221
2.336000000001165e-06,0.29426191631544274,0.47324766525521866
2.352000000001173e-06,0.295440297731072,0.47316119091773334
2.368000000001181e-06,0.29661883243467957,0.4730753297321613
2.3840000000011888e-06,0.29779752037053453,0.47299008147557875
2.4000000000011967e-06,0.29897636148292617,0.472905445925143
2.4160000000012047e-06,0.3001553557161641,0.4728214228580922
2.4320000000012127e-06,0.3013345030145781,0.4727380120517457
2.4480000000012207e-06,0.3025138033225182,0.4726552132835037
2.4640000000012287e-06,0.30369325658435464,0.4725730263308473
2.4800000000012366e-06,0.30487286274447806,0.47249145097133854
2.4960000000012446e-06,0.30605262174729914,0.4724104869826204
2.5120000000012526e-06,0.3072325335372488,0.4723301341424166
2.5280000000012606e-06,0.3084125980587782,0.4722503922285317
2.5440000000012686e-06,0.3095928152563586,0.4721712610188512
2.5600000000012765e-06,0.3107731850744817,0.472092740291341
2.5760000000012845e-06,0.31195370745765905,0.47201482982404813
2.5920000000012925e-06,0.3131343823504226,0.47193752939510003
2.6080000000013005e-06,0.3143152096973244,0.47186083878270485
2.6240000000013084e-06,0.31549618944293667,0.4717847577651515
2.6400000000013164e-06,0.3166773215318517,0.4717092861208093
2.6560000000013244e-06,0.3178586059086821,0.47163442362812835
2.6720000000013324e-06,0.3190400425180604,0.4715601700656392
2.6880000000013404e-06,0.32022163130463954,0.4714865252119532
2.7040000000013483e-06,0.3214033722130923,0.4714134888457618
2.7200000000013563e-06,0.32258526518811165,0.47134106074583687
2.7360000000013643e-06,0.3237673101744108,0.471269240691031
2.7520000000013723e-06,0.3249495071167228,0.471198028460277
2.7680000000013803e-06,0.32613185595980126,0.47112742383258815
2.7840000000013882e-06,0.32731435664841935,0.47105742658705807
2.800000000001396e-06,0.32849700912737057,0.47098803650286064
2.816000000001404e-06,0.32967981334146856,0.4709192533592501
2.832000000001412e-06,0.3308627692355468,0.47085107693556083
2.84800000000142e-06,0.33204587675445907,0.4707835070112076
2.864000000001428e-06,0.3332291358430791,0.47071654336568525
2.880000000001436e-06,0.33441254644630064,0.4706501857785688
2.896000000001444e-06,0.3355961085090373,0.47058443402951344
2.912000000001452e-06,0.33677982197622325,0.4705192878982545
2.92800000000146e-06,0.337963686792812,0.47045474716460745
2.944000000001468e-06,0.3391477029037777,0.4703908116084677
2.960000000001476e-06,0.34033187025411404,0.4703274810098106
2.976000000001484e-06,0.3415161887888349,0.4702647551486916
2.992000000001492e-06,0.34270065845297415,0.47020263380524624
3.0080000000015e-06,0.3438852791915856,0.4701411167596897
3.024000000001508e-06,0.3450700509497431,0.4700802037923174
3.040000000001516e-06,0.3462549736725405,0.4700198946835044
3.056000000001524e-06,0.3474400473050914,0.4699601892137057
3.072000000001532e-06,0.34862527179252956,0.46990108716345597
3.08800000000154e-06,0.3498106470800087,0.46984258831337
3.104000000001548e-06,0.35099617311270226,0.46978469244414206
3.1200000000015558e-06,0.3521818498358039,0.4697273993365463
3.1360000000015638e-06,0.3533676771945271,0.46967070877143646
3.1520000000015717e-06,0.3545536551341051,0.46961462052974595
3.1680000000015797e-06,0.3557397835997912,0.46955913439248803
3.1840000000015877e-06,0.35692606253685866,0.4695042501407554
3.2000000000015957e-06,0.35811249189060046,0.46944996755572044
3.2160000000016036e-06,0.3592990716063297,0.46939628641863496
3.2320000000016116e-06,0.36048580162937915,0.46934320651083034
3.2480000000016196e-06,0.36167268190510155,0.4692907276137176
3.2640000000016276e-06,0.36285971237886955,0.4692388495087871
3.2800000000016356e-06,0.36404689299607546,0.4691875719776085
3.2960000000016435e-06,0.36523422370213177,0.46913689480183124
3.3120000000016515e-06,0.36642170444247046,0.4690868177631838
3.3280000000016595e-06,0.3676093351625437,0.46903734064347424
3.3440000000016675e-06,0.3687971158078232,0.4689884632245899
3.3600000000016754e-06,0.3699850463238007,0.4689401852884974
3.3760000000016834e-06,0.37117312665598756,0.4688925066172426
3.3920000000016914e-06,0.3723613567499152,0.4688454269929506
3.4080000000016994e-06,0.37354973655113455,0.4687989461978258
3.4240000000017074e-06,0.37473826600521665,0.4687530640141517
3.4400000000017153e-06,0.3759269450577521,0.468707780224291
3.4560000000017233e-06,0.3771157736543513,0.4686630946106854
3.4720000000017313e-06,0.3783047517406445,0.4686190069558558
3.4880000000017393e-06,0.37949387926228173,0.4685755170424023
3.5040000000017473e-06,0.38068315616493265,0.4685326246530038
3.5200000000017552e-06,0.38187258239428695,0.4684903295704186
3.536000000001763e-06,0.3830621578960538,0.46844863157748334
3.552000000001771e-06,0.384251882615962,0.46840753045711414
3.568000000001779e-06,0.38544175649976065,0.468367025992306
3.584000000001787e-06,0.3866317794932178,0.4683271179661325
3.600000000001795e-06,0.3878219515421219,0.46828780616174637
3.616000000001803e-06,0.3890122725922807,0.468249090362379
3.632000000001811e-06,0.3902027425895217,0.4682109703513409
3.648000000001819e-06,0.3913933614796924,0.46817344591202104
3.664000000001827e-06,0.3925841292086595,0.4681365168278874
3.680000000001835e-06,0.3937750457223099,0.46810018288248634
3.696000000001843e-06,0.3949661109665497,0.4680644438594432
3.712000000001851e-06,0.39615732488730493,0.46802929954246186
3.728000000001859e-06,0.3973486874305213,0.46799474971532484
3.744000000001867e-06,0.39854019854216405,0.46796079416189335
3.760000000001875e-06,0.39973185816821805,0.46792743266610715
3.776000000001883e-06,0.40092366625468806,0.4678946650119846
3.792000000001891e-06,0.4021156227475981,0.4678624909836225
3.808000000001899e-06,0.40330772759299216,0.4678309103651962
3.824000000001907e-06,0.4044999807369336,0.4677999229409596
3.840000000001915e-06,0.4056923821255055,0.4677695284952448
3.856000000001923e-06,0.4068849317048105,0.4677397268124624
3.872000000001931e-06,0.40807762942097087,0.4677105176771015
3.888000000001939e-06,0.4092704752201284,0.4676819008737293
3.904000000001947e-06,0.4104634690484446,0.4676538761869917
3.920000000001955e-06,0.4116566108521005,0.46762644340161275
3.936000000001963e-06,0.41284990057729654,0.4675996023023946
3.952000000001971e-06,0.4140433381702529,0.46757335267421785
3.968000000001979e-06,0.4152369235772093,0.467547694302041
3.984000000001987e-06,0.416430656744425,0.46752262697090113
4.000000000001995e-06,0.4176245376181787,0.4674981504659134
4.0160000000020026e-06,0.4188185661447686,0.46747426457227087
4.0320000000020105e-06,0.42001274227051266,0.46745096907524486
4.0480000000020185e-06,0.4212070659417483,0.46742826376018465
4.0640000000020265e-06,0.4224015371048321,0.4674061484125176
4.0800000000020345e-06,0.42359615570614056,0.46738462281774923
4.0960000000020425e-06,0.42479092169206956,0.46736368676146284
4.1120000000020504e-06,0.42598583500903436,0.4673433400293199
4.128000000002058e-06,0.42718089560346995,0.4673235824070596
4.144000000002066e-06,0.42837610342183036,0.46730441368049896
4.160000000002074e-06,0.4295714584105896,0.4672858336355332
4.176000000002082e-06,0.43076696051624064,0.4672678420581351
4.19200000000209e-06,0.43196260968529626,0.46725043873435546
4.208000000002098e-06,0.4331584058642887,0.4672336234503227
4.224000000002106e-06,0.4343543489997694,0.46721739599224293
4.240000000002114e-06,0.4355504390383093,0.4672017561464002
4.256000000002122e-06,0.4367466759264989,0.4671867036991563
4.27200000000213e-06,0.4379430596109481,0.4671722384369505
4.288000000002138e-06,0.43913959003828595,0.4671583601462997
4.304000000002146e-06,0.4403362671551613,0.46714506861379856
4.320000000002154e-06,0.4415330909082421,0.4671323636261194
4.336000000002162e-06,0.44273006124421577,0.4671202449700118
4.35200000000217e-06,0.4439271781097892,0.467108712432303
4.368000000002178e-06,0.4451244414516885,0.4670977657998979
4.384000000002186e-06,0.44632185121665935,0.46708740485977873
4.400000000002194e-06,0.4475194073514665,0.46707762939900516
4.416000000002202e-06,0.44871710980289436,0.46706843920471425
4.43200000000221e-06,0.44991495851774654,0.46705983406412066
4.448000000002218e-06,0.4511129534428461,0.46705181376451615
4.464000000002226e-06,0.4523110945250351,0.46704437809327004
4.480000000002234e-06,0.45350938171117544,0.4670375268378289
4.496000000002242e-06,0.45470781494814794,0.46703125978571636
4.51200000000225e-06,0.4559063941828528,0.4670255767245335
4.528000000002258e-06,0.4571051193622096,0.46702047744195846
4.544000000002266e-06,0.4583039904331574,0.467015961725747
4.560000000002274e-06,0.45950300734265415,0.46701202936373154
4.576000000002282e-06,0.4607021700376772,0.46700868014382185
4.59200000000229e-06,0.46190147846522367,0.467005913854005
4.608000000002298e-06,0.46310093257230917,0.4670037302823447
4.624000000002306e-06,0.4643005323059691,0.467002129216982
4.640000000002314e-06,0.4655002776132579,0.46700111044613496
4.656000000002322e-06,0.4667001684412494,0.4670006737580986
4.67200000000233e-06,0.46790020473703664,0.467000818941245
4.688000000002338e-06,0.4691003864477318,0.46700154578402303
4.704000000002346e-06,0.4703007135204663,0.4670028540749586
4.720000000002354e-06,0.47150118590239076,0.4670047436026544
4.736000000002362e-06,0.4727018035406753,0.46700721415579
4.7520000000023696e-06,0.4739025663825089,0.4670102655231218
4.7680000000023775e-06,0.4751034743750998,0.4670138974934832
4.7840000000023855e-06,0.47630452746567564,0.4670181098557842
4.8000000000023935e-06,0.477505725601483,0.46702290239901134
4.8160000000024015e-06,0.47870706872978774,0.4670282749122282
4.8320000000024095e-06,0.47990855679787514,0.467034227184575
4.8480000000024174e-06,0.4811101897530491,0.4670407590052686
4.864000000002425e-06,0.48231196754263317,0.46704787016360216
4.880000000002433e-06,0.4835138901139697,0.4670555604489461
4.896000000002441e-06,0.48471595741442053,0.46706382965074694
4.912000000002449e-06,0.48591816939136634,0.4670726775585278
4.928000000002457e-06,0.4871205259922071,0.46708210396188854
4.944000000002465e-06,0.48832302716436193,0.46709210865050527
4.960000000002473e-06,0.4895256728552688,0.46710269141413063
4.976000000002481e-06,0.49072846301238526,0.46711385204259387
4.992000000002489e-06,0.4919313975831875,0.46712559032580037
5.008000000002497e-06,0.49313447651517106,0.46713790605373223
5.024000000002505e-06,0.4943376997558505,0.4671507990164475
5.040000000002513e-06,0.4955410672527594,0.4671642690040809
5.056000000002521e-06,0.4967445789534506,0.46717831580684327
5.072000000002529e-06,0.4979482348054959,0.4671929392150219
5.088000000002537e-06,0.49915203475648606,0.46720813901898006
5.104000000002545e-06,0.5003559787540309,0.46722391500915744
5.120000000002553e-06,0.5015600667457596,0.4672402669760699
5.136000000002561e-06,0.5027642986793202,0.4672571947103095
5.152000000002569e-06,0.5039686745023795,0.4672746980025444
5.168000000002577e-06,0.5051731941626237,0.4672927766435187
5.184000000002585e-06,0.5063778576077577,0.4673114304240527
5.200000000002593e-06,0.5075826647855057,0.46733065913504274
5.216000000002601e-06,0.5087876156436111,0.46735046256746116
