time,vin,vout
0.0,0.01155803571066666,-0.03167410713628533
1.6000000000009063e-06,0.01238810586380681,-0.029364317595703033
3.2000000000018125e-06,0.01324567351147769,-0.027137020538712982
4.800000000002719e-06,0.014129756600303271,-0.0249892698051868
6.400000000003625e-06,0.015039408150242137,-0.02291822445500097
8.000000000004531e-06,0.015973715001969004,-0.020921145010178832
9.600000000005438e-06,0.016931796608991415,-0.018995389831243163
1.1200000000006344e-05,0.017912803872905836,-0.017138411622983844
1.280000000000725e-05,0.01891591802025195,-0.015347754065019478
1.4400000000008156e-05,0.0199403495194786,-0.013621048562696674
1.6000000000009063e-05,0.02098533703659009,-0.011956011114028213
1.760000000000997e-05,0.022050146428090393,-0.010350439288526584
1.9200000000010875e-05,0.023134069769894374,-0.00880220931393564
2.080000000001178e-05,0.02423642442091959,-0.007309273267008736
2.2400000000012688e-05,0.025356552120122618,-0.005869656364614829
2.4000000000013594e-05,0.026493818115782605,-0.004481454351592244
2.56000000000145e-05,0.027647610325883396,-0.0031428309818918414
2.7200000000015406e-05,0.02881733852848055,-0.0018520155896808062
2.8800000000016313e-05,0.03000243358098506,-0.0006073007471915116
3.040000000001722e-05,0.031202346667328733,0.0005929599937803225
3.2000000000018125e-05,0.03241654857201724,0.0017503542797173768
3.360000000001903e-05,0.03364452898010983,0.002866413055442444
3.520000000001994e-05,0.03488579580219913,0.00394261258917733
3.6800000000020844e-05,0.036139874523499496,0.004980376425278758
3.840000000002175e-05,0.03740630757618208,0.005981077267233768
4.0000000000022656e-05,0.03868465373412603,0.00694603879340468
4.160000000002356e-05,0.03997448752928629,0.007876537407926622
4.320000000002447e-05,0.041275398688905146,0.00877380392907276
4.4800000000025375e-05,0.04258699159282336,0.009639025217320824
4.640000000002628e-05,0.04390888475017315,0.010473345745274365
4.800000000002719e-05,0.04524071029476037,0.011277869111515175
4.9600000000028094e-05,0.04658211349846958,0.01205365950039032
5.1200000000029e-05,0.047932752302046376,0.01280174308966281
5.2800000000029906e-05,0.04929229686263826,0.013523109407889797
5.440000000003081e-05,0.05066042911749481,0.014218712643323021
5.600000000003172e-05,0.0520368423632493,0.014889472906062122
5.7600000000032625e-05,0.05342124085022696,0.01553627744513205
5.920000000003353e-05,0.05481333939124108,0.016159981822092252
6.080000000003444e-05,0.05621286298436192,0.01676141104273251
6.240000000003534e-05,0.05761954644915696,0.017341360648349805
6.400000000003625e-05,0.05903313407592376,0.017900597768052313
6.560000000003716e-05,0.06045337928744887,0.018439862133479694
6.720000000003806e-05,0.06188004431284818,0.018959867057284724
6.880000000003897e-05,0.06331289987305457,0.019461300376668024
7.040000000003988e-05,0.06475172487753937,0.019944825363216255
7.200000000004078e-05,0.0661963061318641,0.020411081600244955
7.360000000004169e-05,0.06764643805567723,0.020860685828808317
7.52000000000426e-05,0.0691019224107827,0.021294232763494333
7.68000000000435e-05,0.07056256803892032,0.02171229587908459
7.84000000000444e-05,0.07202819060891012,0.02211542816911799
8.000000000004531e-05,0.07349861237282883,0.02250416287736441
8.160000000004622e-05,0.07497366193089336,0.02287901420317348
8.320000000004713e-05,0.0764531740047413,0.02324047798163221
8.480000000004803e-05,0.0779369892188092,0.02358903233943191
8.640000000004894e-05,0.07942495388951727,0.02392513832730988
8.800000000004984e-05,0.08091691982198593,0.02424924052990663
8.960000000005075e-05,0.0824127441140093,0.024561767653839196
9.120000000005166e-05,0.08391228896703186,0.02486313309477417
9.280000000005256e-05,0.08541542150387513,0.025153735484247236
9.440000000005347e-05,0.08692201359297397,0.02543395921695335
9.600000000005438e-05,0.08843194167889072,0.02570417495920565
9.760000000005528e-05,0.08994508661888201,0.025964740139234728
9.920000000005619e-05,0.09146133352530221,0.026215999419977043
0.0001008000000000571,0.09298057161363588,0.026458285154978445
0.000102400000000058,0.09450269405595778,0.026691917828015638
0.0001040000000000589,0.0960275978396253,0.02691720647701576
0.00010560000000005981,0.09755518363101892,0.027134449102837174
0.00010720000000006072,0.0990853556441488,0.027343933063450968
0.00010880000000006163,0.10061802151395237,0.02754593545404259
0.00011040000000006253,0.10215309217412019,0.027740723473541742
0.00011200000000006344,0.10369048173928205,0.027928554778058765
0.00011360000000006434,0.1052301073914026,0.02810967782170029
0.00011520000000006525,0.10677188927023294,0.028284332185211564
0.00011680000000006616,0.10831575036767659,0.02845274889288324
0.00011840000000006706,0.10986161642592603,0.02861515071813825
0.00012000000000006797,0.1114094158392379,0.028771752478205473
0.00012160000000006888,0.11295907955921715,0.028922761318270193
0.00012320000000006978,0.1145105410034829,0.029068376985475472
0.0001248000000000707,0.11606373596759642,0.029208792093137773
0.0001264000000000716,0.11761860254013444,0.029344192375526365
0.0001280000000000725,0.11917508102079613,0.029474756933543914
0.0001296000000000734,0.12073311384143436,0.029600658471632416
0.0001312000000000743,0.12229264548990683,0.029722063526217632
0.00013280000000007522,0.12385362243664814,0.029839132685996195
0.00013440000000007613,0.12541599306386317,0.029952020804354246
0.00013600000000007703,0.12697970759724897,0.03006087720419938
0.00013760000000007794,0.12854471804015669,0.030165845875478575
0.00013920000000007884,0.13011097811010355,0.03026706566564076
0.00014080000000007975,0.13167844317755245,0.030364670463297286
0.00014240000000008066,0.13324707020687804,0.030458789375323023
0.00014400000000008156,0.13481681769944184,0.030549546897633353
0.00014560000000008247,0.13638764563870012,0.030637063079861457
0.00014720000000008338,0.13795951543727059,0.0307214536841528
0.00014880000000008428,0.13953238988589226,0.03080283033829101
0.0001504000000000852,0.14110623310420603,0.030881300683352847
0.0001520000000000861,0.14268101049329415,0.030956968516090824
0.000153600000000087,0.14425668868991504,0.031029933926231185
0.0001552000000000879,0.14583323552237076,0.031100293428866388
0.0001568000000000888,0.14741061996795313,0.031168140092121793
0.00015840000000008972,0.1489888121119078,0.031233563660261143
0.00016000000000009063,0.15056778310786395,0.03129665067239536
0.00016160000000009153,0.1521475051396787,0.031357484576953185
0.00016320000000009244,0.15372795138464332,0.03141614584206287
0.00016480000000009334,0.15530909597800185,0.03147271206198986
0.00016640000000009425,0.15689091397874058,0.031527258059776714
0.00016800000000009516,0.15847338133659553,0.03157985598621375
0.00016960000000009606,0.16005647486024163,0.031630575415278236
0.00017120000000009697,0.16164017218661475,0.03167948343616189
0.00017280000000009788,0.16322445175133168,0.031726644742014004
0.00017440000000009878,0.1648092927601656,0.03177212171551391
0.0001760000000000997,0.1663946751615417,0.03181597451138932
0.0001776000000001006,0.1679805796200113,0.03185826113598325
0.0001792000000001015,0.1695669874906783,0.0318990375239844
0.0001808000000001024,0.17115388079453617,0.031938357612414425
0.0001824000000001033,0.1727412421946844,0.03197627341197154
0.00018400000000010422,0.17432905497339887,0.03201283507583025
0.00018560000000010513,0.17591730301001698,0.032048090965980214
0.00018720000000010603,0.1775059707596125,0.03208208771719573
0.00018880000000010694,0.17909504323243672,0.032114870298724923
0.00019040000000010784,0.18068450597408914,0.03214648207377138
0.00019200000000010875,0.18227434504639653,0.03217696485685162
0.00019360000000010966,0.18386454700897903,0.03220635896910787
0.00019520000000011056,0.18545509890146877,0.032234703291640104
0.00019680000000011147,0.18704598822637006,0.0322620353169395
0.00019840000000011238,0.18863720293252484,0.03228839119847812
0.00020000000000011328,0.19022873139917384,0.03231380579853296
0.0002016000000001142,0.19182056242058568,0.03233831273430038
0.0002032000000001151,0.1934126851912329,0.032361944422361844
0.000204800000000116,0.19500508929149962,0.03238473212156376
0.0002064000000001169,0.19659776467389994,0.03240670597436582
0.0002080000000001178,0.19819070164978592,0.032427895046710564
0.00020960000000011872,0.19978389087653323,0.03244832736647166
0.00021120000000011963,0.20137732334518235,0.03246802996052692
0.00021280000000012053,0.20297099036852273,0.03248702889050889
0.00021440000000012144,0.2045648835696007,0.03250534928727691
0.00021600000000012234,0.20615899487064024,0.032523015384160414
0.00021760000000012325,0.20775331648235734,0.03254005054901274
0.00021920000000012416,0.20934784089365585,0.03255647731512018
0.00022080000000012506,0.2109425608616936,0.032572317411009355
0.00022240000000012597,0.2125374694023015,0.03258759178918824
0.00022400000000012688,0.21413255978074477,0.03260232065386065
0.00022560000000012778,0.2157278255028155,0.03261652348765226
0.0002272000000001287,0.21732326030624052,0.03263021907737956
0.0002288000000001296,0.21891885815240034,0.03264342553890226
0.0002304000000001305,0.2205146132183405,0.03265616034108515
0.0002320000000001314,0.2221105198890686,0.032668440328904425
0.0002336000000001323,0.22370657275012742,0.03268028174572973
0.00023520000000013322,0.22530276658043435,0.03269170025481144
0.00023680000000013413,0.2268990963453733,0.032702710959997494
0.00023840000000013503,0.2284955571901359,0.03271332842571262
0.00024000000000013594,0.23009214443329967,0.03272356669622348
0.00024160000000013684,0.23168885356063643,0.032733439314216295
0.00024320000000013775,0.2332856802191397,0.0327429593387093
0.00024480000000013866,0.23488262021126785,0.03275213936232746
0.00024640000000013956,0.23647966948939167,0.0327609915279595
0.00024800000000014047,0.2380768241504392,0.03276952754481849
0.0002496000000001414,0.23967408043073538,0.03277775870393282
0.0002512000000001423,0.24127143470102114,0.03278569589307892
0.0002528000000001432,0.24286888346165372,0.032793349611183936
0.0002544000000001441,0.24446642333797786,0.03280072998221362
0.000256000000000145,0.24606405107586196,0.032807846768563714
0.0002576000000001459,0.24766176353739305,0.03281470938397271
0.0002592000000001468,0.24925955769672728,0.03282132690597486
0.0002608000000001477,0.2508574306360842,0.03282770808790442
0.0002624000000001486,0.2524553795418933,0.03283386137047997
0.00026400000000014953,0.2540534017010666,0.03283979489296379
0.00026560000000015044,0.2556514944974121,0.03284551650393008
0.00026720000000015134,0.2572496554081737,0.03285103377164744
0.00026880000000015225,0.2588478820006942,0.03285635399408954
0.00027040000000015316,0.26044617192919584,0.032861484208586894
0.00027200000000015406,0.26204452293167996,0.0328664312011383
0.00027360000000015497,0.26364293282693196,0.03287120151538378
0.0002752000000001559,0.2652413995116397,0.03287580146126373
0.0002768000000001568,0.26683992095760783,0.03288023712336216
0.0002784000000001577,0.26843849520907725,0.0328845143689572
0.0002800000000001586,0.2700371203801368,0.03288863885578072
0.0002816000000001595,0.27163579465223026,0.03289261603950372
0.0002832000000001604,0.27323451627174855,0.03289645118095039
0.0002848000000001613,0.2748332835477129,0.03290014935305999
0.0002864000000001622,0.27643209484953596,0.03290371544759452
0.0002880000000001631,0.27803094860486477,0.032907154181609305
0.00028960000000016403,0.27962984329750373,0.03291047010369541
0.00029120000000016494,0.28122877746540587,0.03291366759999295
0.00029280000000016584,0.2828277496987397,0.03291675089999377
0.00029440000000016675,0.2844267586380258,0.032919724082137336
0.00029600000000016766,0.28602580297233776,0.0329225910792047
0.00029760000000016856,0.28762488143756687,0.032925355683519314
0.00029920000000016947,0.2892239928147526,0.03292802155196611
0.0003008000000001704,0.290823135928467,0.03293059221082506
0.0003024000000001713,0.2924223096452635,0.03293307106043947
0.0003040000000001722,0.29402151287217365,0.03293546137970965
0.0003056000000001731,0.2956207445552664,0.03293776633043527
0.000307200000000174,0.2972200036782483,0.03293998896149175
0.0003088000000001749,0.29881928926112383,0.03294213221286768
0.0003104000000001758,0.30041860035889695,0.03294419891955186
0.0003120000000001767,0.3020179360603207,0.03294619181528269
0.0003136000000001776,0.3036172954866942,0.03294811353616661
0.00031520000000017853,0.30521667779069644,0.03294996662416105
0.00031680000000017944,0.3068160821552705,0.032951753530441774
0.00031840000000018034,0.30841550779253873,0.0329534766186414
0.00032000000000018125,0.3100149539427608,0.032955138167975795
0.00032160000000018216,0.3116144198733327,0.03295674037626317
0.00032320000000018306,0.31321390487781275,0.03295828536282591
0.00032480000000018397,0.3148134082749898,0.032959775171297
0.0003264000000001849,0.3164129294079822,0.03296121177232292
0.0003280000000001858,0.318012467643368,0.03296259706616955
0.0003296000000001867,0.31961202237034675,0.03296393288523547
0.0003312000000001876,0.32121159299993396,0.032965220996478195
0.0003328000000001885,0.322811178964178,0.03296646310374707
0.0003344000000001894,0.3244107797154137,0.032967660850042435
0.0003360000000001903,0.32601039472553367,0.03296881581968425
0.0003376000000001912,0.32761002348529245,0.0329699295404105
0.0003392000000001921,0.3292096655036317,0.03297100348539689
0.00034080000000019303,0.33080932030702964,0.03297203907520452
0.00034240000000019394,0.3324089874388783,0.032973037679662476
0.00034400000000019484,0.33400866645887506,0.03297400061967537
0.00034560000000019575,0.3356083569424432,0.032974929168973266
0.00034720000000019666,0.33720805848017,0.03297582455579662
0.00034880000000019756,0.3388077706772631,0.032976687964518414
0.00035040000000019847,0.340407493153032,0.03297752053721503
0.0003520000000001994,0.3420072255403802,0.0329783233751722
0.0003536000000002003,0.3436069674853234,0.03297909754034534
0.0003552000000002012,0.34520671864651886,0.032979844056762464
0.0003568000000002021,0.34680647869481407,0.03298056391187859
0.000358400000000203,0.34840624731281344,0.03298125805788382
0.0003600000000002039,0.3500060241944552,0.032981927412959744
0.0003616000000002048,0.3516058090446104,0.03298257286249778
0.0003632000000002057,0.3532056015786887,0.03298319526026666
0.0003648000000002066,0.35480540152226403,0.03298379542954366
0.00036640000000020753,0.3564052086107113,0.032984374164203245
0.00036800000000020844,0.3580050225888578,0.032984932229768726
0.00036960000000020934,0.3596048432106407,0.032985470364419844
0.00037120000000021025,0.36120467023878944,0.03298598927997726
0.00037280000000021116,0.36280450344450454,0.03298648966283635
0.00037440000000021206,0.36440434260715804,0.03298697217487867
0.00037600000000021297,0.3660041875140018,0.0329874374543474
0.0003776000000002139,0.3676040379598884,0.03298788611669362
0.0003792000000002148,0.3692038937469924,0.03298831875538366
0.0003808000000002157,0.3708037546845567,0.03298873594269158
0.0003824000000002166,0.37240362058863685,0.032989138230453185
0.0003840000000002175,0.3740034912818574,0.032989526150795034
0.0003856000000002184,0.375603366593177,0.032989900216838786
0.0003872000000002193,0.37720324635766395,0.03299026092338103
0.0003888000000002202,0.37880313041627656,0.032990608747547
0.0003904000000002211,0.38040301861565273,0.032990944149421
0.00039200000000022203,0.382002910807908,0.03299126757265625
0.00039360000000022294,0.383602806850441,0.03299157944506276
0.00039520000000022384,0.3852027066057397,0.032991880179168154
0.00039680000000022475,0.38680260994120663,0.03299217017277006
0.00039840000000022566,0.3884025167289781,0.0329924498094572
0.00040000000000022656,0.39000242684575787,0.03299271945912002
0.00040160000000022747,0.3916023401726533,0.03299297947843832
0.0004032000000002284,0.3932022565950161,0.03299323021135181
0.0004048000000002293,0.39480217600229517,0.03299347198951896
0.0004064000000002302,0.39640209828788514,0.032993705132750906
0.0004080000000002311,0.39800202334898965,0.03299392994943878
0.000409600000000232,0.39960195108648433,0.03299414673696027
0.0004112000000002329,0.4012018814047817,0.03299435578206916
0.0004128000000002338,0.4028018142117117,0.032994557361281596
0.0004144000000002347,0.40440174941839463,0.03299475174123684
0.0004160000000002356,0.4060016869391238,0.03299493917904994
0.00041760000000023653,0.40760162669125666,0.032995119922656635
0.00041920000000023744,0.40920156859509854,0.03299529421113406
0.00042080000000023834,0.4108015125738027,0.03299546227502237
0.00042240000000023925,0.4124014585532677,0.032995624336629226
0.00042400000000024016,0.41400140646203754,0.03299578061032149
0.00042560000000024106,0.4156013562312092,0.03299593130281114
0.00042720000000024197,0.4172013077943387,0.032996076613425906
0.0004288000000002429,0.41880126108735627,0.03299621673437553
0.0004304000000002438,0.42040121604848035,0.03299635185100552
0.0004320000000002447,0.422001172618136,0.03299648214204187
0.0004336000000002456,0.42360113073887484,0.03299660777982644
0.0004352000000002465,0.4252010903553021,0.032996728930547725
0.0004368000000002474,0.426801051414,0.03299684575445766
0.0004384000000002483,0.4284010138634583,0.03299695840608463
0.0004400000000002492,0.4300009776540081,0.03299706703444
0.0004416000000002501,0.43160094273775185,0.03299717178321049
0.00044320000000025103,0.4332009090685046,0.032997272790953214
0.00044480000000025194,0.43480087660173106,0.03299737019127713
0.00044640000000025284,0.43640084529448564,0.03299746411301857
0.00044800000000025375,0.43800081510535516,0.032997554680411156
0.00044960000000025466,0.4396007859944086,0.03299764201325461
0.00045120000000025556,0.44120075792313823,0.032997726227067425
0.00045280000000025647,0.44280073085441335,0.0329978074332441
0.0004544000000002574,0.4444007047524291,0.032997885739200705
0.0004560000000002583,0.4460006795826582,0.03299796124851567
0.0004576000000002592,0.4476006553118082,0.03299803406106977
0.0004592000000002601,0.44920063190777354,0.03299810427317468
0.000460800000000261,0.45080060933959776,0.03299817197770483
0.0004624000000002619,0.4524005875774284,0.03299823726421619
0.0004640000000002628,0.45400056659247906,0.03299830021906608
0.0004656000000002637,0.4556005463569929,0.03299836092552916
0.0004672000000002646,0.45720052684420265,0.032998419463904194
0.00046880000000026553,0.4588005080282969,0.03299847591162214
0.00047040000000026644,0.46040048988438886,0.03299853034335121
0.00047200000000026734,0.4620004723884769,0.03299858283108925
0.00047360000000026825,0.4636004555174186,0.0329986334442649
0.00047520000000026916,0.46520043924889803,0.032998682249827105
0.00047680000000027006,0.46680042356139717,0.03299872931233455
0.00047840000000027097,0.46840040843416336,0.032998774694037225
0.0004800000000002719,0.4700003938471884,0.03299881845496522
0.0004816000000002728,0.4716003797811761,0.03299886065300228
0.0004832000000002737,0.4732003662175233,0.03299890134396838
0.0004848000000002746,0.4748003531382845,0.0329989405816834
0.0004864000000002755,0.47640034052616276,0.03299897841805288
0.0004880000000002764,0.4780003283644747,0.03299901490312429
0.0004896000000002773,0.4796003166371311,0.03299905008515586
0.0004912000000002782,0.4812003053286213,0.03299908401068635
0.0004928000000002791,0.4828002944239879,0.03299911672459177
0.00049440000000028,0.484400283908804,0.03299914827014161
0.0004960000000002809,0.486000273769164,0.03299917868906632
0.0004976000000002818,0.4876002639916532,0.03299920802160011
0.0004992000000002828,0.4892002545633399,0.032999236306544055
0.0005008000000002837,0.49080024547175227,0.032999263581311666
0.0005024000000002846,0.4924002367048632,0.032999289881979144
0.0005040000000002855,0.4940002282510773,0.032999315243337046
0.0005056000000002864,0.4956002200992139,0.03299933969893398
0.0005072000000002873,0.49720021223848704,0.032999363281115246
0.0005088000000002882,0.49880020465850117,0.03299938602107638
0.0005104000000002891,0.5004001973492285,0.03299940794889544
